T23DC 5186:159 SEGGER J-Link V6.44a Log File (0000ms, 2139ms total)
T23DC 5186:159 DLL Compiled: Mar  8 2019 17:31:48 (0000ms, 2139ms total)
T23DC 5186:159 Logging started @ 2025-10-15 10:42 (0000ms, 2139ms total)
T23DC 5186:160 JLINK_SetWarnOutHandler(...) (0000ms, 2139ms total)
T23DC 5186:160 JLINK_OpenEx(...)
Firmware: J-Link V9 compiled Feb  2 2021 16:34:10
Hardware: V9.50
S/N: 59522939
Feature(s): GDB, RDI, FlashBP, FlashDL, JFlash, RDDI
TELNET listener socket opened on port 19021Device "CORTEX-M33" selected.WEBSRV 
Starting webserver (0026ms, 2165ms total)
T23DC 5186:160 WEBSRV Webserver running on local port 19080 (0026ms, 2165ms total)
T23DC 5186:160   returns O.K. (0026ms, 2165ms total)
T23DC 5186:186 JLINK_GetEmuCaps()  returns 0xB9FF7BBF (0000ms, 2165ms total)
T23DC 5186:186 JLINK_TIF_GetAvailable(...) (0000ms, 2165ms total)
T23DC 5186:186 JLINK_SetErrorOutHandler(...) (0000ms, 2165ms total)
T23DC 5186:186 JLINK_ExecCommand("ProjectFile = "D:\Personal\Desktop\GD32\GD32E5\GD32E50x_Demo_Suites_V1.4.0\GD32E503V_EVAL_Demo_Suites\Projects\DMA_SPI_TEST\MDK-ARM\JLinkSettings.ini"", ...). Device "CORTEX-M33" selected.  returns 0x00 (0005ms, 2170ms total)
T23DC 5186:196 JLINK_ExecCommand("Device = GD32E503VE", ...). Device "CORTEX-M33" selected.  returns 0x00 (0003ms, 2173ms total)
T23DC 5186:199 JLINK_ExecCommand("DisableConnectionTimeout", ...).   returns 0x01 (0000ms, 2173ms total)
T23DC 5186:199 JLINK_GetHardwareVersion()  returns 0x17318 (0000ms, 2173ms total)
T23DC 5186:199 JLINK_GetDLLVersion()  returns 64401 (0000ms, 2173ms total)
T23DC 5186:199 JLINK_GetFirmwareString(...) (0000ms, 2173ms total)
T23DC 5186:213 JLINK_GetDLLVersion()  returns 64401 (0000ms, 2173ms total)
T23DC 5186:213 JLINK_GetCompileDateTime() (0000ms, 2173ms total)
T23DC 5186:215 JLINK_GetFirmwareString(...) (0000ms, 2173ms total)
T23DC 5186:216 JLINK_GetHardwareVersion()  returns 0x17318 (0000ms, 2173ms total)
T23DC 5186:222 JLINK_TIF_Select(JLINKARM_TIF_SWD)  returns 0x00 (0001ms, 2174ms total)
T23DC 5186:223 JLINK_SetSpeed(2000) (0000ms, 2174ms total)
T23DC 5186:223 JLINK_GetId() >0x10B TIF>Found SW-DP with ID 0x0BE12477 >0x0D TIF> >0x28 TIF> >0x0D TIF> >0x28 TIF> >0x0D TIF> >0x28 TIF> >0x0D TIF> >0x28 TIF> >0x0D TIF> >0x21 TIF> >0x0D TIF> >0x28 TIF>Scanning AP map to find all available APs >0x0D TIF> >0x28 TIF> >0x0D TIF> >0x21 TIF> >0x0D TIF> >0x21 TIF> >0x0D TIF> >0x28 TIF> >0x0D TIF> >0x21 TIF> >0x0D TIF> >0x21 TIF>AP[1]: Stopped AP scan as end of AP map has been reachedAP[0]: AHB-AP (IDR: 0x14770015)Iterating through AP map to find AHB-AP to use
 >0x42 TIF> >0x28 TIF> >0x0D TIF> >0x28 TIF> >0x0D TIF> >0x21 TIF> >0x0D TIF> >0x21 TIF> >0x42 TIF> >0x28 TIF> >0x0D TIF> >0x28 TIF> >0x0D TIF> >0x28 TIF> >0x0D TIF> >0x21 TIF> >0x0D TIF> >0x21 TIF>AP[0]: Core foundAP[0]: AHB-AP ROM base: 0xE00FE000 >0x0D TIF> >0x28 TIF> >0x0D TIF> >0x28 TIF> >0x0D TIF> >0x28 TIF> >0x0D TIF> >0x21 TIF> >0x0D TIF> >0x21 TIF>CPUID register: 0x410FD214. Implementer code: 0x41 (ARM)Found Cortex-M33 r0p4, Little endian. -- Max. mem block: 0x00011028
 -- CPU_ReadMem(4 bytes @ 0xE000EDF0) -- CPU_WriteMem(4 bytes @ 0xE000EDF0) -- CPU_ReadMem(4 bytes @ 0xE0002000)FPUnit: 8 code (BP) slots and 0 literal slots -- CPU_ReadMem(4 bytes @ 0xE000EDFC) -- CPU_WriteMem(4 bytes @ 0xE000EDFC) -- CPU_ReadMem(4 bytes @ 0xE0001000) -- CPU_WriteMem(4 bytes @ 0xE0001000) -- CPU_ReadMem(4 bytes @ 0xE000ED88) -- CPU_WriteMem(4 bytes @ 0xE000ED88) -- CPU_ReadMem(4 bytes @ 0xE000ED88) -- CPU_WriteMem(4 bytes @ 0xE000ED88) -- CPU_ReadMem(4 bytes @ 0xE000EFB8)
Security extension: not implementedCoreSight components:ROMTbl[0] @ E00FE000 -- CPU_ReadMem(16 bytes @ 0xE00FE000) -- CPU_ReadMem(16 bytes @ 0xE00FFFF0) -- CPU_ReadMem(16 bytes @ 0xE00FFFE0)ROMTbl[0][0]: E00FF000, CID: B105100D, PID: 000BB4C9 ROM TableROMTbl[1] @ E00FF000 -- CPU_ReadMem(16 bytes @ 0xE00FF000) -- CPU_ReadMem(16 bytes @ 0xE000EFF0) -- CPU_ReadMem(16 bytes @ 0xE000EFE0) -- CPU_ReadMem(4 bytes @ 0xE000EFBC) -- CPU_ReadMem(4 bytes @ 0xE000EFCC)
ROMTbl[1][0]: E000E000, CID: B105900D, PID: 000BBD21 Cortex-M33 -- CPU_ReadMem(16 bytes @ 0xE0001FF0) -- CPU_ReadMem(16 bytes @ 0xE0001FE0) -- CPU_ReadMem(4 bytes @ 0xE0001FBC) -- CPU_ReadMem(4 bytes @ 0xE0001FCC)ROMTbl[1][1]: E0001000, CID: B105900D, PID: 000BBD21 DWT -- CPU_ReadMem(16 bytes @ 0xE0002FF0) -- CPU_ReadMem(16 bytes @ 0xE0002FE0) -- CPU_ReadMem(4 bytes @ 0xE0002FBC) -- CPU_ReadMem(4 bytes @ 0xE0002FCC)ROMTbl[1][2]: E0002000, CID: B105900D, PID: 000BBD21 FPB
 -- CPU_ReadMem(16 bytes @ 0xE0000FF0) -- CPU_ReadMem(16 bytes @ 0xE0000FE0) -- CPU_ReadMem(4 bytes @ 0xE0000FBC) -- CPU_ReadMem(4 bytes @ 0xE0000FCC)ROMTbl[1][3]: E0000000, CID: B105900D, PID: 000BBD21 ITM -- CPU_ReadMem(16 bytes @ 0xE00FF010) -- CPU_ReadMem(16 bytes @ 0xE00FF020) -- CPU_ReadMem(16 bytes @ 0xE0040FF0) -- CPU_ReadMem(16 bytes @ 0xE0040FE0) -- CPU_ReadMem(4 bytes @ 0xE0040FBC) -- CPU_ReadMem(4 bytes @ 0xE0040FCC)ROMTbl[0][1]: E0040000, CID: B105900D, PID: 000BBD21 Cortex-M33
 -- CPU_ReadMem(16 bytes @ 0xE00FE010) >0x0D TIF> >0x21 TIF>  returns 0x0BE12477 (0179ms, 2353ms total)
T23DC 5186:402 JLINK_GetDLLVersion()  returns 64401 (0000ms, 2353ms total)
T23DC 5186:402 JLINK_CORE_GetFound()  returns 0xE0200FF (0000ms, 2353ms total)
T23DC 5186:402 JLINK_GetDebugInfo(0x100 = JLINKARM_ROM_TABLE_ADDR_INDEX) -- Value=0xE00FE000  returns 0x00 (0000ms, 2353ms total)
T23DC 5186:403 JLINK_GetDebugInfo(0x100 = JLINKARM_ROM_TABLE_ADDR_INDEX) -- Value=0xE00FE000  returns 0x00 (0000ms, 2353ms total)
T23DC 5186:403 JLINK_GetDebugInfo(0x101 = JLINKARM_DEBUG_INFO_ETM_ADDR_INDEX) -- Value=0x00000000  returns 0x00 (0000ms, 2353ms total)
T23DC 5186:403 JLINK_ReadMemEx(0xE0041FF0, 0x0010 Bytes, ..., Flags = 0x02000004) -- CPU_ReadMem(16 bytes @ 0xE0041FF0) - Data: 00 00 00 00 00 00 00 00 00 00 00 00 00 00 00 00  returns 0x10 (0002ms, 2355ms total)
T23DC 5186:405 JLINK_GetDebugInfo(0x102 = JLINKARM_DEBUG_INFO_MTB_ADDR_INDEX) -- Value=0x00000000  returns 0x00 (0000ms, 2355ms total)
T23DC 5186:405 JLINK_GetDebugInfo(0x103 = JLINKARM_DEBUG_INFO_TPIU_ADDR_INDEX) -- Value=0x00000000  returns 0x00 (0000ms, 2355ms total)
T23DC 5186:405 JLINK_ReadMemEx(0xE0040FF0, 0x0010 Bytes, ..., Flags = 0x02000004) -- CPU_ReadMem(16 bytes @ 0xE0040FF0) - Data: 0D 00 00 00 90 00 00 00 05 00 00 00 B1 00 00 00  returns 0x10 (0000ms, 2355ms total)
T23DC 5186:405 JLINK_GetDebugInfo(0x104 = JLINKARM_DEBUG_INFO_ITM_ADDR_INDEX) -- Value=0xE0000000  returns 0x00 (0000ms, 2355ms total)
T23DC 5186:405 JLINK_GetDebugInfo(0x105 = JLINKARM_DEBUG_INFO_DWT_ADDR_INDEX) -- Value=0xE0001000  returns 0x00 (0000ms, 2355ms total)
T23DC 5186:405 JLINK_GetDebugInfo(0x106 = JLINKARM_DEBUG_INFO_FPB_ADDR_INDEX) -- Value=0xE0002000  returns 0x00 (0000ms, 2355ms total)
T23DC 5186:405 JLINK_GetDebugInfo(0x107 = JLINKARM_DEBUG_INFO_NVIC_ADDR_INDEX) -- Value=0xE000E000  returns 0x00 (0000ms, 2355ms total)
T23DC 5186:405 JLINK_GetDebugInfo(0x10C = JLINKARM_DEBUG_INFO_DBG_ADDR_INDEX) -- Value=0xE000EDF0  returns 0x00 (0000ms, 2355ms total)
T23DC 5186:405 JLINK_GetDebugInfo(0x01 = Unknown) -- Value=0x00000001  returns 0x00 (0000ms, 2355ms total)
T23DC 5186:405 JLINK_ReadMemU32(0xE000ED00, 0x0001 Items, ...) -- CPU_ReadMem(4 bytes @ 0xE000ED00) - Data: 14 D2 0F 41  returns 1 (0000ms, 2355ms total)
T23DC 5186:405 JLINK_GetDebugInfo(0x10F = JLINKARM_DEBUG_INFO_HAS_CORTEX_M_SECURITY_EXT_INDEX) -- Value=0x00000000  returns 0x00 (0000ms, 2355ms total)
T23DC 5186:405 JLINK_SetResetType(JLINKARM_CM3_RESET_TYPE_NORMAL)  returns JLINKARM_CM3_RESET_TYPE_NORMAL (0000ms, 2355ms total)
T23DC 5186:405 JLINK_Reset() -- CPU is running -- CPU_WriteMem(4 bytes @ 0xE000EDF0) -- CPU is running -- CPU_WriteMem(4 bytes @ 0xE000EDFC)Reset: Halt core after reset via DEMCR.VC_CORERESET. >0x35 TIF>Reset: Reset device via AIRCR.SYSRESETREQ. -- CPU is running -- CPU_WriteMem(4 bytes @ 0xE000ED0C) >0x0D TIF> >0x28 TIF> -- CPU_ReadMem(4 bytes @ 0xE000EDF0) -- CPU_ReadMem(4 bytes @ 0xE000EDF0) -- CPU is running -- CPU_WriteMem(4 bytes @ 0xE000EDF0) -- CPU is running -- CPU_WriteMem(4 bytes @ 0xE000EDFC)
 -- CPU_ReadMem(4 bytes @ 0xE000EDF0) -- CPU_ReadMem(4 bytes @ 0xE000EE08) -- CPU_WriteMem(4 bytes @ 0xE0002000) -- CPU_ReadMem(4 bytes @ 0xE000EDFC) -- CPU_ReadMem(4 bytes @ 0xE0001000) -- CPU_ReadMem(4 bytes @ 0xE000EE08) (0074ms, 2429ms total)
T23DC 5186:479 JLINK_Halt()  returns 0x00 (0000ms, 2429ms total)
T23DC 5186:479 JLINK_ReadMemU32(0xE000EDF0, 0x0001 Items, ...) -- CPU_ReadMem(4 bytes @ 0xE000EDF0) - Data: 03 00 03 00  returns 1 (0001ms, 2430ms total)
T23DC 5186:480 JLINK_WriteU32(0xE000EDF0, 0xA05F0003) -- CPU_WriteMem(4 bytes @ 0xE000EDF0)  returns 0 (0000ms, 2430ms total)
T23DC 5186:480 JLINK_WriteU32(0xE000EDFC, 0x01000000) -- CPU_WriteMem(4 bytes @ 0xE000EDFC)  returns 0 (0001ms, 2431ms total)
T23DC 5186:487 JLINK_GetHWStatus(...)  returns 0x00 (0001ms, 2432ms total)
T23DC 5186:495 JLINK_GetNumBPUnits(Type = 0xFFFFFF00)  returns 0x08 (0000ms, 2432ms total)
T23DC 5186:495 JLINK_GetNumBPUnits(Type = 0xF0)  returns 0x2000 (0000ms, 2432ms total)
T23DC 5186:495 JLINK_GetNumWPUnits()  returns 0x04 (0000ms, 2432ms total)
T23DC 5186:500 JLINK_GetSpeed()  returns 0x7D0 (0000ms, 2432ms total)
T23DC 5186:503 JLINK_ReadMemU32(0xE000E004, 0x0001 Items, ...) -- CPU_ReadMem(4 bytes @ 0xE000E004) - Data: 02 00 00 00  returns 1 (0000ms, 2432ms total)
T23DC 5186:503 JLINK_ReadMemU32(0xE000E004, 0x0001 Items, ...) -- CPU_ReadMem(4 bytes @ 0xE000E004) - Data: 02 00 00 00  returns 1 (0002ms, 2434ms total)
T23DC 5186:505 JLINK_WriteMemEx(0xE0001000, 0x001C Bytes, ..., Flags = 0x02000004) - Data: 01 00 00 00 00 00 00 00 00 00 00 00 00 00 00 00 ... -- CPU_WriteMem(28 bytes @ 0xE0001000)  returns 0x1C (0000ms, 2434ms total)
T23DC 5186:505 JLINK_Halt()  returns 0x00 (0000ms, 2434ms total)
T23DC 5186:505 JLINK_IsHalted()  returns TRUE (0000ms, 2434ms total)
T23DC 5186:507 JLINK_WriteMem(0x20000000, 0x01F4 Bytes, ...) - Data: 00 BE 0A E0 0D 78 2D 06 68 40 08 24 40 00 00 D3 ... -- CPU_WriteMem(500 bytes @ 0x20000000)  returns 0x1F4 (0004ms, 2438ms total)
T23DC 5186:511 JLINK_WriteReg(R0, 0x08000000) -- CPU_ReadMem(4 bytes @ 0xE000EE08)  returns 0x00 (0001ms, 2439ms total)
T23DC 5186:512 JLINK_WriteReg(R1, 0x00B71B00)  returns 0x00 (0000ms, 2439ms total)
T23DC 5186:512 JLINK_WriteReg(R2, 0x00000001)  returns 0x00 (0000ms, 2439ms total)
T23DC 5186:512 JLINK_WriteReg(R3, 0x00000000)  returns 0x00 (0000ms, 2439ms total)
T23DC 5186:512 JLINK_WriteReg(R4, 0x00000000)  returns 0x00 (0000ms, 2439ms total)
T23DC 5186:512 JLINK_WriteReg(R5, 0x00000000)  returns 0x00 (0000ms, 2439ms total)
T23DC 5186:512 JLINK_WriteReg(R6, 0x00000000)  returns 0x00 (0000ms, 2439ms total)
T23DC 5186:512 JLINK_WriteReg(R7, 0x00000000)  returns 0x00 (0000ms, 2439ms total)
T23DC 5186:512 JLINK_WriteReg(R8, 0x00000000)  returns 0x00 (0000ms, 2439ms total)
T23DC 5186:512 JLINK_WriteReg(R9, 0x200001F0)  returns 0x00 (0000ms, 2439ms total)
T23DC 5186:512 JLINK_WriteReg(R10, 0x00000000)  returns 0x00 (0000ms, 2439ms total)
T23DC 5186:512 JLINK_WriteReg(R11, 0x00000000)  returns 0x00 (0000ms, 2439ms total)
T23DC 5186:512 JLINK_WriteReg(R12, 0x00000000)  returns 0x00 (0000ms, 2439ms total)
T23DC 5186:512 JLINK_WriteReg(R13 (SP), 0x20000800)  returns 0x00 (0000ms, 2439ms total)
T23DC 5186:512 JLINK_WriteReg(R14, 0x20000001)  returns 0x00 (0000ms, 2439ms total)
T23DC 5186:512 JLINK_WriteReg(R15 (PC), 0x20000038)  returns 0x00 (0000ms, 2439ms total)
T23DC 5186:512 JLINK_WriteReg(XPSR, 0x01000000)  returns 0x00 (0000ms, 2439ms total)
T23DC 5186:512 JLINK_WriteReg(MSP, 0x20000800)  returns 0x00 (0000ms, 2439ms total)
T23DC 5186:512 JLINK_WriteReg(PSP, 0x20000800)  returns 0x00 (0000ms, 2439ms total)
T23DC 5186:512 JLINK_WriteReg(CFBP, 0x00000000)  returns 0x00 (0000ms, 2439ms total)
T23DC 5186:512 JLINK_SetBPEx(Addr = 0x20000000, Type = 0xFFFFFFF2)  returns 0x00000001 (0000ms, 2439ms total)
T23DC 5186:512 JLINK_Go() -- CPU_WriteMem(4 bytes @ 0xE0002000) -- CPU_ReadMem(4 bytes @ 0xE0001000) -- CPU_WriteMem(4 bytes @ 0xE0002008) -- CPU_WriteMem(4 bytes @ 0xE000200C) -- CPU_WriteMem(4 bytes @ 0xE0002010) -- CPU_WriteMem(4 bytes @ 0xE0002014) -- CPU_WriteMem(4 bytes @ 0xE0002018) -- CPU_WriteMem(4 bytes @ 0xE000201C) -- CPU_WriteMem(4 bytes @ 0xE0002020) -- CPU_WriteMem(4 bytes @ 0xE0002024) -- CPU_WriteMem(4 bytes @ 0xE0001004) (0007ms, 2446ms total)
T23DC 5186:519 JLINK_IsHalted()  returns TRUE (0005ms, 2451ms total)
T23DC 5186:524 JLINK_ReadReg(R15 (PC)) -- CPU_ReadMem(4 bytes @ 0xE000EE08)  returns 0x20000000 (0000ms, 2446ms total)
T23DC 5186:524 JLINK_ClrBPEx(BPHandle = 0x00000001)  returns 0x00 (0000ms, 2446ms total)
T23DC 5186:524 JLINK_ReadReg(R0)  returns 0x00000000 (0000ms, 2446ms total)
T23DC 5186:524 JLINK_WriteReg(R0, 0x08000000)  returns 0x00 (0000ms, 2446ms total)
T23DC 5186:524 JLINK_WriteReg(R1, 0x00002000)  returns 0x00 (0000ms, 2446ms total)
T23DC 5186:524 JLINK_WriteReg(R2, 0x000000FF)  returns 0x00 (0000ms, 2446ms total)
T23DC 5186:524 JLINK_WriteReg(R3, 0x00000000)  returns 0x00 (0000ms, 2446ms total)
T23DC 5186:524 JLINK_WriteReg(R4, 0x00000000)  returns 0x00 (0000ms, 2446ms total)
T23DC 5186:524 JLINK_WriteReg(R5, 0x00000000)  returns 0x00 (0000ms, 2446ms total)
T23DC 5186:524 JLINK_WriteReg(R6, 0x00000000)  returns 0x00 (0000ms, 2446ms total)
T23DC 5186:524 JLINK_WriteReg(R7, 0x00000000)  returns 0x00 (0000ms, 2446ms total)
T23DC 5186:524 JLINK_WriteReg(R8, 0x00000000)  returns 0x00 (0000ms, 2446ms total)
T23DC 5186:524 JLINK_WriteReg(R9, 0x200001F0)  returns 0x00 (0000ms, 2446ms total)
T23DC 5186:524 JLINK_WriteReg(R10, 0x00000000)  returns 0x00 (0000ms, 2446ms total)
T23DC 5186:524 JLINK_WriteReg(R11, 0x00000000)  returns 0x00 (0000ms, 2446ms total)
T23DC 5186:524 JLINK_WriteReg(R12, 0x00000000)  returns 0x00 (0000ms, 2446ms total)
T23DC 5186:524 JLINK_WriteReg(R13 (SP), 0x20000800)  returns 0x00 (0000ms, 2446ms total)
T23DC 5186:524 JLINK_WriteReg(R14, 0x20000001)  returns 0x00 (0000ms, 2446ms total)
T23DC 5186:524 JLINK_WriteReg(R15 (PC), 0x20000020)  returns 0x00 (0000ms, 2446ms total)
T23DC 5186:524 JLINK_WriteReg(XPSR, 0x01000000)  returns 0x00 (0000ms, 2446ms total)
T23DC 5186:524 JLINK_WriteReg(MSP, 0x20000800)  returns 0x00 (0000ms, 2446ms total)
T23DC 5186:524 JLINK_WriteReg(PSP, 0x20000800)  returns 0x00 (0000ms, 2446ms total)
T23DC 5186:524 JLINK_WriteReg(CFBP, 0x00000000)  returns 0x00 (0000ms, 2446ms total)
T23DC 5186:524 JLINK_SetBPEx(Addr = 0x20000000, Type = 0xFFFFFFF2)  returns 0x00000002 (0000ms, 2446ms total)
T23DC 5186:524 JLINK_Go() -- CPU_WriteMem(4 bytes @ 0xE0002000) -- CPU_ReadMem(4 bytes @ 0xE0001000) (0005ms, 2451ms total)
T23DC 5186:529 JLINK_IsHalted()  returns TRUE (0004ms, 2455ms total)
T23DC 5186:533 JLINK_ReadReg(R15 (PC)) -- CPU_ReadMem(4 bytes @ 0xE000EE08)  returns 0x20000000 (0000ms, 2451ms total)
T23DC 5186:533 JLINK_ClrBPEx(BPHandle = 0x00000002)  returns 0x00 (0000ms, 2451ms total)
T23DC 5186:533 JLINK_ReadReg(R0)  returns 0x00000001 (0000ms, 2451ms total)
T23DC 5186:533 JLINK_WriteReg(R0, 0x08000000)  returns 0x00 (0000ms, 2451ms total)
T23DC 5186:533 JLINK_WriteReg(R1, 0x00002000)  returns 0x00 (0000ms, 2451ms total)
T23DC 5186:533 JLINK_WriteReg(R2, 0x000000FF)  returns 0x00 (0000ms, 2451ms total)
T23DC 5186:533 JLINK_WriteReg(R3, 0x00000000)  returns 0x00 (0000ms, 2451ms total)
T23DC 5186:533 JLINK_WriteReg(R4, 0x00000000)  returns 0x00 (0000ms, 2451ms total)
T23DC 5186:533 JLINK_WriteReg(R5, 0x00000000)  returns 0x00 (0000ms, 2451ms total)
T23DC 5186:533 JLINK_WriteReg(R6, 0x00000000)  returns 0x00 (0000ms, 2451ms total)
T23DC 5186:533 JLINK_WriteReg(R7, 0x00000000)  returns 0x00 (0000ms, 2451ms total)
T23DC 5186:533 JLINK_WriteReg(R8, 0x00000000)  returns 0x00 (0001ms, 2452ms total)
T23DC 5186:534 JLINK_WriteReg(R9, 0x200001F0)  returns 0x00 (0000ms, 2452ms total)
T23DC 5186:534 JLINK_WriteReg(R10, 0x00000000)  returns 0x00 (0000ms, 2452ms total)
T23DC 5186:534 JLINK_WriteReg(R11, 0x00000000)  returns 0x00 (0000ms, 2452ms total)
T23DC 5186:534 JLINK_WriteReg(R12, 0x00000000)  returns 0x00 (0000ms, 2452ms total)
T23DC 5186:534 JLINK_WriteReg(R13 (SP), 0x20000800)  returns 0x00 (0000ms, 2452ms total)
T23DC 5186:534 JLINK_WriteReg(R14, 0x20000001)  returns 0x00 (0000ms, 2452ms total)
T23DC 5186:534 JLINK_WriteReg(R15 (PC), 0x20000110)  returns 0x00 (0000ms, 2452ms total)
T23DC 5186:534 JLINK_WriteReg(XPSR, 0x01000000)  returns 0x00 (0000ms, 2452ms total)
T23DC 5186:534 JLINK_WriteReg(MSP, 0x20000800)  returns 0x00 (0000ms, 2452ms total)
T23DC 5186:534 JLINK_WriteReg(PSP, 0x20000800)  returns 0x00 (0000ms, 2452ms total)
T23DC 5186:534 JLINK_WriteReg(CFBP, 0x00000000)  returns 0x00 (0000ms, 2452ms total)
T23DC 5186:534 JLINK_SetBPEx(Addr = 0x20000000, Type = 0xFFFFFFF2)  returns 0x00000003 (0000ms, 2452ms total)
T23DC 5186:534 JLINK_Go() -- CPU_WriteMem(4 bytes @ 0xE0002000) -- CPU_ReadMem(4 bytes @ 0xE0001000) (0004ms, 2456ms total)
T23DC 5186:538 JLINK_IsHalted()  returns FALSE (0001ms, 2457ms total)
T23DC 5186:577 JLINK_IsHalted()  returns TRUE (0004ms, 2460ms total)
T23DC 5186:581 JLINK_ReadReg(R15 (PC)) -- CPU_ReadMem(4 bytes @ 0xE000EE08)  returns 0x20000000 (0000ms, 2456ms total)
T23DC 5186:581 JLINK_ClrBPEx(BPHandle = 0x00000003)  returns 0x00 (0000ms, 2456ms total)
T23DC 5186:581 JLINK_ReadReg(R0)  returns 0x00000000 (0000ms, 2456ms total)
T23DC 5186:581 JLINK_WriteReg(R0, 0x00000001)  returns 0x00 (0000ms, 2456ms total)
T23DC 5186:581 JLINK_WriteReg(R1, 0x00002000)  returns 0x00 (0000ms, 2456ms total)
T23DC 5186:581 JLINK_WriteReg(R2, 0x000000FF)  returns 0x00 (0000ms, 2456ms total)
T23DC 5186:581 JLINK_WriteReg(R3, 0x00000000)  returns 0x00 (0000ms, 2456ms total)
T23DC 5186:581 JLINK_WriteReg(R4, 0x00000000)  returns 0x00 (0000ms, 2456ms total)
T23DC 5186:581 JLINK_WriteReg(R5, 0x00000000)  returns 0x00 (0000ms, 2456ms total)
T23DC 5186:581 JLINK_WriteReg(R6, 0x00000000)  returns 0x00 (0000ms, 2456ms total)
T23DC 5186:581 JLINK_WriteReg(R7, 0x00000000)  returns 0x00 (0000ms, 2456ms total)
T23DC 5186:581 JLINK_WriteReg(R8, 0x00000000)  returns 0x00 (0000ms, 2456ms total)
T23DC 5186:581 JLINK_WriteReg(R9, 0x200001F0)  returns 0x00 (0000ms, 2456ms total)
T23DC 5186:581 JLINK_WriteReg(R10, 0x00000000)  returns 0x00 (0000ms, 2456ms total)
T23DC 5186:581 JLINK_WriteReg(R11, 0x00000000)  returns 0x00 (0000ms, 2456ms total)
T23DC 5186:581 JLINK_WriteReg(R12, 0x00000000)  returns 0x00 (0000ms, 2456ms total)
T23DC 5186:581 JLINK_WriteReg(R13 (SP), 0x20000800)  returns 0x00 (0000ms, 2456ms total)
T23DC 5186:581 JLINK_WriteReg(R14, 0x20000001)  returns 0x00 (0000ms, 2456ms total)
T23DC 5186:581 JLINK_WriteReg(R15 (PC), 0x20000090)  returns 0x00 (0000ms, 2456ms total)
T23DC 5186:581 JLINK_WriteReg(XPSR, 0x01000000)  returns 0x00 (0000ms, 2456ms total)
T23DC 5186:581 JLINK_WriteReg(MSP, 0x20000800)  returns 0x00 (0000ms, 2456ms total)
T23DC 5186:581 JLINK_WriteReg(PSP, 0x20000800)  returns 0x00 (0000ms, 2456ms total)
T23DC 5186:581 JLINK_WriteReg(CFBP, 0x00000000)  returns 0x00 (0000ms, 2456ms total)
T23DC 5186:581 JLINK_SetBPEx(Addr = 0x20000000, Type = 0xFFFFFFF2)  returns 0x00000004 (0000ms, 2456ms total)
T23DC 5186:581 JLINK_Go() -- CPU_WriteMem(4 bytes @ 0xE0002000) -- CPU_ReadMem(4 bytes @ 0xE0001000) (0005ms, 2461ms total)
T23DC 5186:586 JLINK_IsHalted()  returns TRUE (0004ms, 2465ms total)
T23DC 5186:590 JLINK_ReadReg(R15 (PC)) -- CPU_ReadMem(4 bytes @ 0xE000EE08)  returns 0x20000000 (0000ms, 2461ms total)
T23DC 5186:590 JLINK_ClrBPEx(BPHandle = 0x00000004)  returns 0x00 (0000ms, 2461ms total)
T23DC 5186:590 JLINK_ReadReg(R0)  returns 0x00000000 (0000ms, 2461ms total)
T23DC 5186:645 JLINK_WriteMem(0x20000000, 0x01F4 Bytes, ...) - Data: 00 BE 0A E0 0D 78 2D 06 68 40 08 24 40 00 00 D3 ... -- CPU_WriteMem(500 bytes @ 0x20000000)  returns 0x1F4 (0005ms, 2466ms total)
T23DC 5186:650 JLINK_WriteReg(R0, 0x08000000)  returns 0x00 (0000ms, 2466ms total)
T23DC 5186:650 JLINK_WriteReg(R1, 0x00B71B00)  returns 0x00 (0000ms, 2466ms total)
T23DC 5186:650 JLINK_WriteReg(R2, 0x00000002)  returns 0x00 (0000ms, 2466ms total)
T23DC 5186:650 JLINK_WriteReg(R3, 0x00000000)  returns 0x00 (0000ms, 2466ms total)
T23DC 5186:650 JLINK_WriteReg(R4, 0x00000000)  returns 0x00 (0000ms, 2466ms total)
T23DC 5186:650 JLINK_WriteReg(R5, 0x00000000)  returns 0x00 (0000ms, 2466ms total)
T23DC 5186:650 JLINK_WriteReg(R6, 0x00000000)  returns 0x00 (0000ms, 2466ms total)
T23DC 5186:650 JLINK_WriteReg(R7, 0x00000000)  returns 0x00 (0000ms, 2466ms total)
T23DC 5186:650 JLINK_WriteReg(R8, 0x00000000)  returns 0x00 (0000ms, 2466ms total)
T23DC 5186:650 JLINK_WriteReg(R9, 0x200001F0)  returns 0x00 (0000ms, 2466ms total)
T23DC 5186:650 JLINK_WriteReg(R10, 0x00000000)  returns 0x00 (0000ms, 2466ms total)
T23DC 5186:650 JLINK_WriteReg(R11, 0x00000000)  returns 0x00 (0000ms, 2466ms total)
T23DC 5186:650 JLINK_WriteReg(R12, 0x00000000)  returns 0x00 (0000ms, 2466ms total)
T23DC 5186:650 JLINK_WriteReg(R13 (SP), 0x20000800)  returns 0x00 (0000ms, 2466ms total)
T23DC 5186:650 JLINK_WriteReg(R14, 0x20000001)  returns 0x00 (0000ms, 2466ms total)
T23DC 5186:650 JLINK_WriteReg(R15 (PC), 0x20000038)  returns 0x00 (0000ms, 2466ms total)
T23DC 5186:650 JLINK_WriteReg(XPSR, 0x01000000)  returns 0x00 (0000ms, 2466ms total)
T23DC 5186:650 JLINK_WriteReg(MSP, 0x20000800)  returns 0x00 (0000ms, 2466ms total)
T23DC 5186:650 JLINK_WriteReg(PSP, 0x20000800)  returns 0x00 (0000ms, 2466ms total)
T23DC 5186:650 JLINK_WriteReg(CFBP, 0x00000000)  returns 0x00 (0000ms, 2466ms total)
T23DC 5186:650 JLINK_SetBPEx(Addr = 0x20000000, Type = 0xFFFFFFF2)  returns 0x00000005 (0000ms, 2466ms total)
T23DC 5186:650 JLINK_Go() -- CPU_WriteMem(4 bytes @ 0xE0002000) -- CPU_ReadMem(4 bytes @ 0xE0001000) (0005ms, 2471ms total)
T23DC 5186:655 JLINK_IsHalted()  returns TRUE (0003ms, 2474ms total)
T23DC 5186:658 JLINK_ReadReg(R15 (PC)) -- CPU_ReadMem(4 bytes @ 0xE000EE08)  returns 0x20000000 (0001ms, 2472ms total)
T23DC 5186:659 JLINK_ClrBPEx(BPHandle = 0x00000005)  returns 0x00 (0000ms, 2472ms total)
T23DC 5186:659 JLINK_ReadReg(R0)  returns 0x00000000 (0000ms, 2472ms total)
T23DC 5186:659 JLINK_WriteMem(0x200001F8, 0x0208 Bytes, ...) - Data: 10 06 00 20 B5 01 00 08 1D 03 00 08 15 03 00 08 ... -- CPU_WriteMem(520 bytes @ 0x200001F8)  returns 0x208 (0004ms, 2476ms total)
T23DC 5186:663 JLINK_WriteMem(0x20000400, 0x01F8 Bytes, ...) - Data: 8D F8 2F 00 FF E7 9D F8 2F 00 7F 28 0E DC FF E7 ... -- CPU_WriteMem(504 bytes @ 0x20000400)  returns 0x1F8 (0004ms, 2480ms total)
T23DC 5186:667 JLINK_WriteReg(R0, 0x08000000)  returns 0x00 (0001ms, 2481ms total)
T23DC 5186:668 JLINK_WriteReg(R1, 0x00000400)  returns 0x00 (0000ms, 2481ms total)
T23DC 5186:668 JLINK_WriteReg(R2, 0x200001F8)  returns 0x00 (0000ms, 2481ms total)
T23DC 5186:668 JLINK_WriteReg(R3, 0x00000000)  returns 0x00 (0000ms, 2481ms total)
T23DC 5186:668 JLINK_WriteReg(R4, 0x00000000)  returns 0x00 (0000ms, 2481ms total)
T23DC 5186:668 JLINK_WriteReg(R5, 0x00000000)  returns 0x00 (0000ms, 2481ms total)
T23DC 5186:668 JLINK_WriteReg(R6, 0x00000000)  returns 0x00 (0000ms, 2481ms total)
T23DC 5186:668 JLINK_WriteReg(R7, 0x00000000)  returns 0x00 (0000ms, 2481ms total)
T23DC 5186:668 JLINK_WriteReg(R8, 0x00000000)  returns 0x00 (0000ms, 2481ms total)
T23DC 5186:668 JLINK_WriteReg(R9, 0x200001F0)  returns 0x00 (0000ms, 2481ms total)
T23DC 5186:668 JLINK_WriteReg(R10, 0x00000000)  returns 0x00 (0000ms, 2481ms total)
T23DC 5186:668 JLINK_WriteReg(R11, 0x00000000)  returns 0x00 (0000ms, 2481ms total)
T23DC 5186:668 JLINK_WriteReg(R12, 0x00000000)  returns 0x00 (0000ms, 2481ms total)
T23DC 5186:668 JLINK_WriteReg(R13 (SP), 0x20000800)  returns 0x00 (0000ms, 2481ms total)
T23DC 5186:668 JLINK_WriteReg(R14, 0x20000001)  returns 0x00 (0000ms, 2481ms total)
T23DC 5186:668 JLINK_WriteReg(R15 (PC), 0x2000017C)  returns 0x00 (0000ms, 2481ms total)
T23DC 5186:668 JLINK_WriteReg(XPSR, 0x01000000)  returns 0x00 (0000ms, 2481ms total)
T23DC 5186:668 JLINK_WriteReg(MSP, 0x20000800)  returns 0x00 (0000ms, 2481ms total)
T23DC 5186:668 JLINK_WriteReg(PSP, 0x20000800)  returns 0x00 (0000ms, 2481ms total)
T23DC 5186:668 JLINK_WriteReg(CFBP, 0x00000000)  returns 0x00 (0000ms, 2481ms total)
T23DC 5186:668 JLINK_SetBPEx(Addr = 0x20000000, Type = 0xFFFFFFF2)  returns 0x00000006 (0000ms, 2481ms total)
T23DC 5186:668 JLINK_Go() -- CPU_WriteMem(4 bytes @ 0xE0002000) -- CPU_ReadMem(4 bytes @ 0xE0001000) (0004ms, 2485ms total)
T23DC 5186:672 JLINK_IsHalted()  returns FALSE (0001ms, 2486ms total)
T23DC 5186:681 JLINK_IsHalted()  returns FALSE (0000ms, 2485ms total)
T23DC 5186:683 JLINK_IsHalted()  returns FALSE (0000ms, 2485ms total)
T23DC 5186:685 JLINK_IsHalted()  returns TRUE (0003ms, 2488ms total)
T23DC 5186:688 JLINK_ReadReg(R15 (PC)) -- CPU_ReadMem(4 bytes @ 0xE000EE08)  returns 0x20000000 (0001ms, 2486ms total)
T23DC 5186:689 JLINK_ClrBPEx(BPHandle = 0x00000006)  returns 0x00 (0000ms, 2486ms total)
T23DC 5186:689 JLINK_ReadReg(R0)  returns 0x00000000 (0000ms, 2486ms total)
T23DC 5186:689 JLINK_WriteMem(0x200001F8, 0x0208 Bytes, ...) - Data: 8D F8 41 10 8D F8 42 10 40 F2 0C 12 C2 F2 00 02 ... -- CPU_WriteMem(520 bytes @ 0x200001F8)  returns 0x208 (0005ms, 2491ms total)
T23DC 5186:694 JLINK_WriteMem(0x20000400, 0x01F8 Bytes, ...) - Data: 82 B0 01 46 01 90 01 98 40 F2 08 02 C2 F2 00 02 ... -- CPU_WriteMem(504 bytes @ 0x20000400)  returns 0x1F8 (0004ms, 2495ms total)
T23DC 5186:698 JLINK_WriteReg(R0, 0x08000400)  returns 0x00 (0000ms, 2495ms total)
T23DC 5186:698 JLINK_WriteReg(R1, 0x00000400)  returns 0x00 (0000ms, 2495ms total)
T23DC 5186:698 JLINK_WriteReg(R2, 0x200001F8)  returns 0x00 (0000ms, 2495ms total)
T23DC 5186:698 JLINK_WriteReg(R3, 0x00000000)  returns 0x00 (0000ms, 2495ms total)
T23DC 5186:698 JLINK_WriteReg(R4, 0x00000000)  returns 0x00 (0000ms, 2495ms total)
T23DC 5186:698 JLINK_WriteReg(R5, 0x00000000)  returns 0x00 (0000ms, 2495ms total)
T23DC 5186:698 JLINK_WriteReg(R6, 0x00000000)  returns 0x00 (0000ms, 2495ms total)
T23DC 5186:698 JLINK_WriteReg(R7, 0x00000000)  returns 0x00 (0000ms, 2495ms total)
T23DC 5186:698 JLINK_WriteReg(R8, 0x00000000)  returns 0x00 (0000ms, 2495ms total)
T23DC 5186:698 JLINK_WriteReg(R9, 0x200001F0)  returns 0x00 (0000ms, 2495ms total)
T23DC 5186:698 JLINK_WriteReg(R10, 0x00000000)  returns 0x00 (0000ms, 2495ms total)
T23DC 5186:698 JLINK_WriteReg(R11, 0x00000000)  returns 0x00 (0000ms, 2495ms total)
T23DC 5186:698 JLINK_WriteReg(R12, 0x00000000)  returns 0x00 (0000ms, 2495ms total)
T23DC 5186:698 JLINK_WriteReg(R13 (SP), 0x20000800)  returns 0x00 (0000ms, 2495ms total)
T23DC 5186:698 JLINK_WriteReg(R14, 0x20000001)  returns 0x00 (0000ms, 2495ms total)
T23DC 5186:698 JLINK_WriteReg(R15 (PC), 0x2000017C)  returns 0x00 (0000ms, 2495ms total)
T23DC 5186:698 JLINK_WriteReg(XPSR, 0x01000000)  returns 0x00 (0000ms, 2495ms total)
T23DC 5186:698 JLINK_WriteReg(MSP, 0x20000800)  returns 0x00 (0000ms, 2495ms total)
T23DC 5186:698 JLINK_WriteReg(PSP, 0x20000800)  returns 0x00 (0000ms, 2495ms total)
T23DC 5186:698 JLINK_WriteReg(CFBP, 0x00000000)  returns 0x00 (0000ms, 2495ms total)
T23DC 5186:698 JLINK_SetBPEx(Addr = 0x20000000, Type = 0xFFFFFFF2)  returns 0x00000007 (0000ms, 2495ms total)
T23DC 5186:698 JLINK_Go() -- CPU_WriteMem(4 bytes @ 0xE0002000) -- CPU_ReadMem(4 bytes @ 0xE0001000) (0004ms, 2499ms total)
T23DC 5186:702 JLINK_IsHalted()  returns FALSE (0001ms, 2500ms total)
T23DC 5186:707 JLINK_IsHalted()  returns FALSE (0001ms, 2500ms total)
T23DC 5186:710 JLINK_IsHalted()  returns FALSE (0000ms, 2499ms total)
T23DC 5186:712 JLINK_IsHalted()  returns FALSE (0000ms, 2499ms total)
T23DC 5186:714 JLINK_IsHalted()  returns FALSE (0000ms, 2499ms total)
T23DC 5186:715 JLINK_IsHalted()  returns TRUE (0003ms, 2502ms total)
T23DC 5186:718 JLINK_ReadReg(R15 (PC)) -- CPU_ReadMem(4 bytes @ 0xE000EE08)  returns 0x20000000 (0001ms, 2500ms total)
T23DC 5186:719 JLINK_ClrBPEx(BPHandle = 0x00000007)  returns 0x00 (0000ms, 2500ms total)
T23DC 5186:719 JLINK_ReadReg(R0)  returns 0x00000000 (0000ms, 2500ms total)
T23DC 5186:719 JLINK_WriteMem(0x200001F8, 0x0208 Bytes, ...) - Data: 86 46 07 90 8D F8 1B 10 05 92 07 98 9D F8 1B 10 ... -- CPU_WriteMem(520 bytes @ 0x200001F8)  returns 0x208 (0004ms, 2504ms total)
T23DC 5186:723 JLINK_WriteMem(0x20000400, 0x01F8 Bytes, ...) - Data: 01 20 8D F8 0A 00 03 98 40 F2 00 41 C4 F2 02 01 ... -- CPU_WriteMem(504 bytes @ 0x20000400)  returns 0x1F8 (0005ms, 2509ms total)
T23DC 5186:728 JLINK_WriteReg(R0, 0x08000800)  returns 0x00 (0000ms, 2509ms total)
T23DC 5186:728 JLINK_WriteReg(R1, 0x00000400)  returns 0x00 (0000ms, 2509ms total)
T23DC 5186:728 JLINK_WriteReg(R2, 0x200001F8)  returns 0x00 (0000ms, 2509ms total)
T23DC 5186:728 JLINK_WriteReg(R3, 0x00000000)  returns 0x00 (0000ms, 2509ms total)
T23DC 5186:728 JLINK_WriteReg(R4, 0x00000000)  returns 0x00 (0000ms, 2509ms total)
T23DC 5186:728 JLINK_WriteReg(R5, 0x00000000)  returns 0x00 (0000ms, 2509ms total)
T23DC 5186:728 JLINK_WriteReg(R6, 0x00000000)  returns 0x00 (0000ms, 2509ms total)
T23DC 5186:728 JLINK_WriteReg(R7, 0x00000000)  returns 0x00 (0000ms, 2509ms total)
T23DC 5186:728 JLINK_WriteReg(R8, 0x00000000)  returns 0x00 (0000ms, 2509ms total)
T23DC 5186:728 JLINK_WriteReg(R9, 0x200001F0)  returns 0x00 (0000ms, 2509ms total)
T23DC 5186:728 JLINK_WriteReg(R10, 0x00000000)  returns 0x00 (0000ms, 2509ms total)
T23DC 5186:728 JLINK_WriteReg(R11, 0x00000000)  returns 0x00 (0000ms, 2509ms total)
T23DC 5186:728 JLINK_WriteReg(R12, 0x00000000)  returns 0x00 (0000ms, 2509ms total)
T23DC 5186:728 JLINK_WriteReg(R13 (SP), 0x20000800)  returns 0x00 (0000ms, 2509ms total)
T23DC 5186:728 JLINK_WriteReg(R14, 0x20000001)  returns 0x00 (0000ms, 2509ms total)
T23DC 5186:728 JLINK_WriteReg(R15 (PC), 0x2000017C)  returns 0x00 (0000ms, 2509ms total)
T23DC 5186:728 JLINK_WriteReg(XPSR, 0x01000000)  returns 0x00 (0000ms, 2509ms total)
T23DC 5186:728 JLINK_WriteReg(MSP, 0x20000800)  returns 0x00 (0000ms, 2509ms total)
T23DC 5186:728 JLINK_WriteReg(PSP, 0x20000800)  returns 0x00 (0000ms, 2509ms total)
T23DC 5186:728 JLINK_WriteReg(CFBP, 0x00000000)  returns 0x00 (0000ms, 2509ms total)
T23DC 5186:728 JLINK_SetBPEx(Addr = 0x20000000, Type = 0xFFFFFFF2)  returns 0x00000008 (0000ms, 2509ms total)
T23DC 5186:728 JLINK_Go() -- CPU_WriteMem(4 bytes @ 0xE0002000) -- CPU_ReadMem(4 bytes @ 0xE0001000) (0004ms, 2513ms total)
T23DC 5186:732 JLINK_IsHalted()  returns FALSE (0001ms, 2514ms total)
T23DC 5186:737 JLINK_IsHalted()  returns FALSE (0000ms, 2513ms total)
T23DC 5186:739 JLINK_IsHalted()  returns FALSE (0000ms, 2513ms total)
T23DC 5186:741 JLINK_IsHalted()  returns FALSE (0000ms, 2513ms total)
T23DC 5186:743 JLINK_IsHalted()  returns FALSE (0000ms, 2513ms total)
T23DC 5186:745 JLINK_IsHalted()  returns TRUE (0004ms, 2517ms total)
T23DC 5186:749 JLINK_ReadReg(R15 (PC)) -- CPU_ReadMem(4 bytes @ 0xE000EE08)  returns 0x20000000 (0000ms, 2513ms total)
T23DC 5186:749 JLINK_ClrBPEx(BPHandle = 0x00000008)  returns 0x00 (0000ms, 2513ms total)
T23DC 5186:749 JLINK_ReadReg(R0)  returns 0x00000000 (0000ms, 2513ms total)
T23DC 5186:750 JLINK_WriteMem(0x200001F8, 0x0208 Bytes, ...) - Data: 01 EB 82 01 88 40 04 99 08 43 04 90 09 98 28 28 ... -- CPU_WriteMem(520 bytes @ 0x200001F8)  returns 0x208 (0004ms, 2517ms total)
T23DC 5186:754 JLINK_WriteMem(0x20000400, 0x01F8 Bytes, ...) - Data: 85 B0 0A 46 03 46 03 90 02 91 03 98 80 68 02 99 ... -- CPU_WriteMem(504 bytes @ 0x20000400)  returns 0x1F8 (0004ms, 2521ms total)
T23DC 5186:758 JLINK_WriteReg(R0, 0x08000C00)  returns 0x00 (0000ms, 2521ms total)
T23DC 5186:758 JLINK_WriteReg(R1, 0x00000400)  returns 0x00 (0000ms, 2521ms total)
T23DC 5186:758 JLINK_WriteReg(R2, 0x200001F8)  returns 0x00 (0000ms, 2521ms total)
T23DC 5186:758 JLINK_WriteReg(R3, 0x00000000)  returns 0x00 (0000ms, 2521ms total)
T23DC 5186:758 JLINK_WriteReg(R4, 0x00000000)  returns 0x00 (0000ms, 2521ms total)
T23DC 5186:758 JLINK_WriteReg(R5, 0x00000000)  returns 0x00 (0000ms, 2521ms total)
T23DC 5186:758 JLINK_WriteReg(R6, 0x00000000)  returns 0x00 (0000ms, 2521ms total)
T23DC 5186:758 JLINK_WriteReg(R7, 0x00000000)  returns 0x00 (0000ms, 2521ms total)
T23DC 5186:758 JLINK_WriteReg(R8, 0x00000000)  returns 0x00 (0000ms, 2521ms total)
T23DC 5186:758 JLINK_WriteReg(R9, 0x200001F0)  returns 0x00 (0000ms, 2521ms total)
T23DC 5186:758 JLINK_WriteReg(R10, 0x00000000)  returns 0x00 (0000ms, 2521ms total)
T23DC 5186:758 JLINK_WriteReg(R11, 0x00000000)  returns 0x00 (0000ms, 2521ms total)
T23DC 5186:758 JLINK_WriteReg(R12, 0x00000000)  returns 0x00 (0000ms, 2521ms total)
T23DC 5186:758 JLINK_WriteReg(R13 (SP), 0x20000800)  returns 0x00 (0000ms, 2521ms total)
T23DC 5186:758 JLINK_WriteReg(R14, 0x20000001)  returns 0x00 (0000ms, 2521ms total)
T23DC 5186:758 JLINK_WriteReg(R15 (PC), 0x2000017C)  returns 0x00 (0000ms, 2521ms total)
T23DC 5186:758 JLINK_WriteReg(XPSR, 0x01000000)  returns 0x00 (0000ms, 2521ms total)
T23DC 5186:758 JLINK_WriteReg(MSP, 0x20000800)  returns 0x00 (0000ms, 2521ms total)
T23DC 5186:758 JLINK_WriteReg(PSP, 0x20000800)  returns 0x00 (0000ms, 2521ms total)
T23DC 5186:758 JLINK_WriteReg(CFBP, 0x00000000)  returns 0x00 (0000ms, 2521ms total)
T23DC 5186:758 JLINK_SetBPEx(Addr = 0x20000000, Type = 0xFFFFFFF2)  returns 0x00000009 (0000ms, 2521ms total)
T23DC 5186:758 JLINK_Go() -- CPU_WriteMem(4 bytes @ 0xE0002000) -- CPU_ReadMem(4 bytes @ 0xE0001000) (0005ms, 2526ms total)
T23DC 5186:763 JLINK_IsHalted()  returns FALSE (0001ms, 2527ms total)
T23DC 5186:768 JLINK_IsHalted()  returns FALSE (0000ms, 2526ms total)
T23DC 5186:770 JLINK_IsHalted()  returns FALSE (0000ms, 2526ms total)
T23DC 5186:772 JLINK_IsHalted()  returns FALSE (0000ms, 2526ms total)
T23DC 5186:774 JLINK_IsHalted()  returns FALSE (0000ms, 2526ms total)
T23DC 5186:777 JLINK_IsHalted()  returns TRUE (0003ms, 2529ms total)
T23DC 5186:780 JLINK_ReadReg(R15 (PC)) -- CPU_ReadMem(4 bytes @ 0xE000EE08)  returns 0x20000000 (0001ms, 2527ms total)
T23DC 5186:781 JLINK_ClrBPEx(BPHandle = 0x00000009)  returns 0x00 (0000ms, 2527ms total)
T23DC 5186:781 JLINK_ReadReg(R0)  returns 0x00000000 (0000ms, 2527ms total)
T23DC 5186:781 JLINK_WriteMem(0x200001F8, 0x0208 Bytes, ...) - Data: FF E7 47 F2 04 00 C4 F2 00 00 00 68 80 03 00 28 ... -- CPU_WriteMem(520 bytes @ 0x200001F8)  returns 0x208 (0004ms, 2531ms total)
T23DC 5186:785 JLINK_WriteMem(0x20000400, 0x01F8 Bytes, ...) - Data: FF FF FF FF FF FF FF FF FF FF FF FF FF FF FF FF ... -- CPU_WriteMem(504 bytes @ 0x20000400)  returns 0x1F8 (0004ms, 2535ms total)
T23DC 5186:789 JLINK_WriteReg(R0, 0x08001000)  returns 0x00 (0000ms, 2535ms total)
T23DC 5186:790 JLINK_WriteReg(R1, 0x000000D8)  returns 0x00 (0000ms, 2536ms total)
T23DC 5186:790 JLINK_WriteReg(R2, 0x200001F8)  returns 0x00 (0000ms, 2536ms total)
T23DC 5186:790 JLINK_WriteReg(R3, 0x00000000)  returns 0x00 (0000ms, 2536ms total)
T23DC 5186:790 JLINK_WriteReg(R4, 0x00000000)  returns 0x00 (0000ms, 2536ms total)
T23DC 5186:790 JLINK_WriteReg(R5, 0x00000000)  returns 0x00 (0000ms, 2536ms total)
T23DC 5186:790 JLINK_WriteReg(R6, 0x00000000)  returns 0x00 (0000ms, 2536ms total)
T23DC 5186:790 JLINK_WriteReg(R7, 0x00000000)  returns 0x00 (0000ms, 2536ms total)
T23DC 5186:790 JLINK_WriteReg(R8, 0x00000000)  returns 0x00 (0000ms, 2536ms total)
T23DC 5186:790 JLINK_WriteReg(R9, 0x200001F0)  returns 0x00 (0000ms, 2536ms total)
T23DC 5186:790 JLINK_WriteReg(R10, 0x00000000)  returns 0x00 (0000ms, 2536ms total)
T23DC 5186:790 JLINK_WriteReg(R11, 0x00000000)  returns 0x00 (0000ms, 2536ms total)
T23DC 5186:790 JLINK_WriteReg(R12, 0x00000000)  returns 0x00 (0000ms, 2536ms total)
T23DC 5186:790 JLINK_WriteReg(R13 (SP), 0x20000800)  returns 0x00 (0000ms, 2536ms total)
T23DC 5186:790 JLINK_WriteReg(R14, 0x20000001)  returns 0x00 (0000ms, 2536ms total)
T23DC 5186:790 JLINK_WriteReg(R15 (PC), 0x2000017C)  returns 0x00 (0000ms, 2536ms total)
T23DC 5186:790 JLINK_WriteReg(XPSR, 0x01000000)  returns 0x00 (0000ms, 2536ms total)
T23DC 5186:790 JLINK_WriteReg(MSP, 0x20000800)  returns 0x00 (0000ms, 2536ms total)
T23DC 5186:790 JLINK_WriteReg(PSP, 0x20000800)  returns 0x00 (0000ms, 2536ms total)
T23DC 5186:790 JLINK_WriteReg(CFBP, 0x00000000)  returns 0x00 (0000ms, 2536ms total)
T23DC 5186:790 JLINK_SetBPEx(Addr = 0x20000000, Type = 0xFFFFFFF2)  returns 0x0000000A (0000ms, 2536ms total)
T23DC 5186:790 JLINK_Go() -- CPU_WriteMem(4 bytes @ 0xE0002000) -- CPU_ReadMem(4 bytes @ 0xE0001000) (0004ms, 2540ms total)
T23DC 5186:794 JLINK_IsHalted()  returns FALSE (0000ms, 2540ms total)
T23DC 5186:797 JLINK_IsHalted()  returns TRUE (0004ms, 2544ms total)
T23DC 5186:801 JLINK_ReadReg(R15 (PC)) -- CPU_ReadMem(4 bytes @ 0xE000EE08)  returns 0x20000000 (0000ms, 2540ms total)
T23DC 5186:801 JLINK_ClrBPEx(BPHandle = 0x0000000A)  returns 0x00 (0000ms, 2540ms total)
T23DC 5186:801 JLINK_ReadReg(R0)  returns 0x00000000 (0000ms, 2540ms total)
T23DC 5186:801 JLINK_WriteReg(R0, 0x00000002)  returns 0x00 (0000ms, 2540ms total)
T23DC 5186:801 JLINK_WriteReg(R1, 0x000000D8)  returns 0x00 (0000ms, 2540ms total)
T23DC 5186:801 JLINK_WriteReg(R2, 0x200001F8)  returns 0x00 (0000ms, 2540ms total)
T23DC 5186:801 JLINK_WriteReg(R3, 0x00000000)  returns 0x00 (0000ms, 2540ms total)
T23DC 5186:801 JLINK_WriteReg(R4, 0x00000000)  returns 0x00 (0000ms, 2540ms total)
T23DC 5186:801 JLINK_WriteReg(R5, 0x00000000)  returns 0x00 (0000ms, 2540ms total)
T23DC 5186:801 JLINK_WriteReg(R6, 0x00000000)  returns 0x00 (0000ms, 2540ms total)
T23DC 5186:801 JLINK_WriteReg(R7, 0x00000000)  returns 0x00 (0000ms, 2540ms total)
T23DC 5186:801 JLINK_WriteReg(R8, 0x00000000)  returns 0x00 (0000ms, 2540ms total)
T23DC 5186:801 JLINK_WriteReg(R9, 0x200001F0)  returns 0x00 (0000ms, 2540ms total)
T23DC 5186:801 JLINK_WriteReg(R10, 0x00000000)  returns 0x00 (0000ms, 2540ms total)
T23DC 5186:801 JLINK_WriteReg(R11, 0x00000000)  returns 0x00 (0000ms, 2540ms total)
T23DC 5186:801 JLINK_WriteReg(R12, 0x00000000)  returns 0x00 (0000ms, 2540ms total)
T23DC 5186:801 JLINK_WriteReg(R13 (SP), 0x20000800)  returns 0x00 (0000ms, 2540ms total)
T23DC 5186:801 JLINK_WriteReg(R14, 0x20000001)  returns 0x00 (0000ms, 2540ms total)
T23DC 5186:801 JLINK_WriteReg(R15 (PC), 0x20000090)  returns 0x00 (0000ms, 2540ms total)
T23DC 5186:801 JLINK_WriteReg(XPSR, 0x01000000)  returns 0x00 (0000ms, 2540ms total)
T23DC 5186:801 JLINK_WriteReg(MSP, 0x20000800)  returns 0x00 (0000ms, 2540ms total)
T23DC 5186:801 JLINK_WriteReg(PSP, 0x20000800)  returns 0x00 (0000ms, 2540ms total)
T23DC 5186:801 JLINK_WriteReg(CFBP, 0x00000000)  returns 0x00 (0000ms, 2540ms total)
T23DC 5186:801 JLINK_SetBPEx(Addr = 0x20000000, Type = 0xFFFFFFF2)  returns 0x0000000B (0000ms, 2540ms total)
T23DC 5186:801 JLINK_Go() -- CPU_WriteMem(4 bytes @ 0xE0002000) -- CPU_ReadMem(4 bytes @ 0xE0001000) (0005ms, 2545ms total)
T23DC 5186:806 JLINK_IsHalted()  returns TRUE (0003ms, 2548ms total)
T23DC 5186:809 JLINK_ReadReg(R15 (PC)) -- CPU_ReadMem(4 bytes @ 0xE000EE08)  returns 0x20000000 (0001ms, 2546ms total)
T23DC 5186:810 JLINK_ClrBPEx(BPHandle = 0x0000000B)  returns 0x00 (0000ms, 2546ms total)
T23DC 5186:810 JLINK_ReadReg(R0)  returns 0x00000000 (0000ms, 2546ms total)
T23DC 5186:864 JLINK_WriteMem(0x20000000, 0x01F4 Bytes, ...) - Data: 00 BE 0A E0 0D 78 2D 06 68 40 08 24 40 00 00 D3 ... -- CPU_WriteMem(500 bytes @ 0x20000000)  returns 0x1F4 (0005ms, 2551ms total)
T23DC 5186:869 JLINK_WriteReg(R0, 0x08000000)  returns 0x00 (0000ms, 2551ms total)
T23DC 5186:869 JLINK_WriteReg(R1, 0x00B71B00)  returns 0x00 (0000ms, 2551ms total)
T23DC 5186:869 JLINK_WriteReg(R2, 0x00000003)  returns 0x00 (0000ms, 2551ms total)
T23DC 5186:869 JLINK_WriteReg(R3, 0x00000000)  returns 0x00 (0000ms, 2551ms total)
T23DC 5186:869 JLINK_WriteReg(R4, 0x00000000)  returns 0x00 (0000ms, 2551ms total)
T23DC 5186:869 JLINK_WriteReg(R5, 0x00000000)  returns 0x00 (0000ms, 2551ms total)
T23DC 5186:869 JLINK_WriteReg(R6, 0x00000000)  returns 0x00 (0000ms, 2551ms total)
T23DC 5186:869 JLINK_WriteReg(R7, 0x00000000)  returns 0x00 (0000ms, 2551ms total)
T23DC 5186:869 JLINK_WriteReg(R8, 0x00000000)  returns 0x00 (0000ms, 2551ms total)
T23DC 5186:869 JLINK_WriteReg(R9, 0x200001F0)  returns 0x00 (0000ms, 2551ms total)
T23DC 5186:869 JLINK_WriteReg(R10, 0x00000000)  returns 0x00 (0000ms, 2551ms total)
T23DC 5186:869 JLINK_WriteReg(R11, 0x00000000)  returns 0x00 (0000ms, 2551ms total)
T23DC 5186:869 JLINK_WriteReg(R12, 0x00000000)  returns 0x00 (0000ms, 2551ms total)
T23DC 5186:869 JLINK_WriteReg(R13 (SP), 0x20000800)  returns 0x00 (0000ms, 2551ms total)
T23DC 5186:869 JLINK_WriteReg(R14, 0x20000001)  returns 0x00 (0000ms, 2551ms total)
T23DC 5186:869 JLINK_WriteReg(R15 (PC), 0x20000038)  returns 0x00 (0000ms, 2551ms total)
T23DC 5186:869 JLINK_WriteReg(XPSR, 0x01000000)  returns 0x00 (0000ms, 2551ms total)
T23DC 5186:869 JLINK_WriteReg(MSP, 0x20000800)  returns 0x00 (0000ms, 2551ms total)
T23DC 5186:869 JLINK_WriteReg(PSP, 0x20000800)  returns 0x00 (0000ms, 2551ms total)
T23DC 5186:869 JLINK_WriteReg(CFBP, 0x00000000)  returns 0x00 (0000ms, 2551ms total)
T23DC 5186:869 JLINK_SetBPEx(Addr = 0x20000000, Type = 0xFFFFFFF2)  returns 0x0000000C (0000ms, 2551ms total)
T23DC 5186:869 JLINK_Go() -- CPU_WriteMem(4 bytes @ 0xE0002000) -- CPU_ReadMem(4 bytes @ 0xE0001000) (0004ms, 2555ms total)
T23DC 5186:873 JLINK_IsHalted()  returns TRUE (0004ms, 2559ms total)
T23DC 5186:877 JLINK_ReadReg(R15 (PC)) -- CPU_ReadMem(4 bytes @ 0xE000EE08)  returns 0x20000000 (0000ms, 2555ms total)
T23DC 5186:877 JLINK_ClrBPEx(BPHandle = 0x0000000C)  returns 0x00 (0000ms, 2555ms total)
T23DC 5186:877 JLINK_ReadReg(R0)  returns 0x00000000 (0001ms, 2556ms total)
T23DC 5186:878 JLINK_WriteReg(R0, 0xFFFFFFFF)  returns 0x00 (0000ms, 2556ms total)
T23DC 5186:878 JLINK_WriteReg(R1, 0x08000000)  returns 0x00 (0000ms, 2556ms total)
T23DC 5186:878 JLINK_WriteReg(R2, 0x000010D8)  returns 0x00 (0000ms, 2556ms total)
T23DC 5186:878 JLINK_WriteReg(R3, 0x04C11DB7)  returns 0x00 (0000ms, 2556ms total)
T23DC 5186:878 JLINK_WriteReg(R4, 0x00000000)  returns 0x00 (0000ms, 2556ms total)
T23DC 5186:878 JLINK_WriteReg(R5, 0x00000000)  returns 0x00 (0000ms, 2556ms total)
T23DC 5186:878 JLINK_WriteReg(R6, 0x00000000)  returns 0x00 (0000ms, 2556ms total)
T23DC 5186:878 JLINK_WriteReg(R7, 0x00000000)  returns 0x00 (0000ms, 2556ms total)
T23DC 5186:878 JLINK_WriteReg(R8, 0x00000000)  returns 0x00 (0000ms, 2556ms total)
T23DC 5186:878 JLINK_WriteReg(R9, 0x200001F0)  returns 0x00 (0000ms, 2556ms total)
T23DC 5186:878 JLINK_WriteReg(R10, 0x00000000)  returns 0x00 (0000ms, 2556ms total)
T23DC 5186:878 JLINK_WriteReg(R11, 0x00000000)  returns 0x00 (0000ms, 2556ms total)
T23DC 5186:878 JLINK_WriteReg(R12, 0x00000000)  returns 0x00 (0000ms, 2556ms total)
T23DC 5186:878 JLINK_WriteReg(R13 (SP), 0x20000800)  returns 0x00 (0000ms, 2556ms total)
T23DC 5186:878 JLINK_WriteReg(R14, 0x20000001)  returns 0x00 (0000ms, 2556ms total)
T23DC 5186:878 JLINK_WriteReg(R15 (PC), 0x20000002)  returns 0x00 (0000ms, 2556ms total)
T23DC 5186:878 JLINK_WriteReg(XPSR, 0x01000000)  returns 0x00 (0000ms, 2556ms total)
T23DC 5186:878 JLINK_WriteReg(MSP, 0x20000800)  returns 0x00 (0000ms, 2556ms total)
T23DC 5186:878 JLINK_WriteReg(PSP, 0x20000800)  returns 0x00 (0000ms, 2556ms total)
T23DC 5186:878 JLINK_WriteReg(CFBP, 0x00000000)  returns 0x00 (0000ms, 2556ms total)
T23DC 5186:878 JLINK_SetBPEx(Addr = 0x20000000, Type = 0xFFFFFFF2)  returns 0x0000000D (0000ms, 2556ms total)
T23DC 5186:878 JLINK_Go() -- CPU_WriteMem(4 bytes @ 0xE0002000) -- CPU_ReadMem(4 bytes @ 0xE0001000) (0005ms, 2561ms total)
T23DC 5186:883 JLINK_IsHalted()  returns FALSE (0000ms, 2561ms total)
T23DC 5186:893 JLINK_IsHalted()  returns FALSE (0000ms, 2561ms total)
T23DC 5186:896 JLINK_IsHalted()  returns FALSE (0000ms, 2561ms total)
T23DC 5186:898 JLINK_IsHalted()  returns FALSE (0001ms, 2562ms total)
T23DC 5186:901 JLINK_IsHalted()  returns FALSE (0001ms, 2562ms total)
T23DC 5186:905 JLINK_IsHalted()  returns FALSE (0000ms, 2561ms total)
T23DC 5186:907 JLINK_IsHalted()  returns FALSE (0000ms, 2561ms total)
T23DC 5186:910 JLINK_IsHalted()  returns FALSE (0000ms, 2561ms total)
T23DC 5186:912 JLINK_IsHalted()  returns TRUE (0003ms, 2564ms total)
T23DC 5186:915 JLINK_ReadReg(R15 (PC)) -- CPU_ReadMem(4 bytes @ 0xE000EE08)  returns 0x20000000 (0002ms, 2563ms total)
T23DC 5186:917 JLINK_ClrBPEx(BPHandle = 0x0000000D)  returns 0x00 (0000ms, 2563ms total)
T23DC 5186:917 JLINK_ReadReg(R0)  returns 0xFF79D64E (0000ms, 2563ms total)
T23DC 5186:917 JLINK_WriteReg(R0, 0x00000003)  returns 0x00 (0000ms, 2563ms total)
T23DC 5186:917 JLINK_WriteReg(R1, 0x08000000)  returns 0x00 (0000ms, 2563ms total)
T23DC 5186:917 JLINK_WriteReg(R2, 0x000010D8)  returns 0x00 (0000ms, 2563ms total)
T23DC 5186:917 JLINK_WriteReg(R3, 0x04C11DB7)  returns 0x00 (0000ms, 2563ms total)
T23DC 5186:917 JLINK_WriteReg(R4, 0x00000000)  returns 0x00 (0000ms, 2563ms total)
T23DC 5186:917 JLINK_WriteReg(R5, 0x00000000)  returns 0x00 (0000ms, 2563ms total)
T23DC 5186:917 JLINK_WriteReg(R6, 0x00000000)  returns 0x00 (0000ms, 2563ms total)
T23DC 5186:917 JLINK_WriteReg(R7, 0x00000000)  returns 0x00 (0000ms, 2563ms total)
T23DC 5186:917 JLINK_WriteReg(R8, 0x00000000)  returns 0x00 (0000ms, 2563ms total)
T23DC 5186:917 JLINK_WriteReg(R9, 0x200001F0)  returns 0x00 (0000ms, 2563ms total)
T23DC 5186:917 JLINK_WriteReg(R10, 0x00000000)  returns 0x00 (0000ms, 2563ms total)
T23DC 5186:917 JLINK_WriteReg(R11, 0x00000000)  returns 0x00 (0000ms, 2563ms total)
T23DC 5186:917 JLINK_WriteReg(R12, 0x00000000)  returns 0x00 (0000ms, 2563ms total)
T23DC 5186:917 JLINK_WriteReg(R13 (SP), 0x20000800)  returns 0x00 (0000ms, 2563ms total)
T23DC 5186:917 JLINK_WriteReg(R14, 0x20000001)  returns 0x00 (0000ms, 2563ms total)
T23DC 5186:917 JLINK_WriteReg(R15 (PC), 0x20000090)  returns 0x00 (0000ms, 2563ms total)
T23DC 5186:917 JLINK_WriteReg(XPSR, 0x01000000)  returns 0x00 (0000ms, 2563ms total)
T23DC 5186:917 JLINK_WriteReg(MSP, 0x20000800)  returns 0x00 (0000ms, 2563ms total)
T23DC 5186:917 JLINK_WriteReg(PSP, 0x20000800)  returns 0x00 (0000ms, 2563ms total)
T23DC 5186:917 JLINK_WriteReg(CFBP, 0x00000000)  returns 0x00 (0000ms, 2563ms total)
T23DC 5186:917 JLINK_SetBPEx(Addr = 0x20000000, Type = 0xFFFFFFF2)  returns 0x0000000E (0000ms, 2563ms total)
T23DC 5186:917 JLINK_Go() -- CPU_WriteMem(4 bytes @ 0xE0002000) -- CPU_ReadMem(4 bytes @ 0xE0001000) (0004ms, 2567ms total)
T23DC 5186:921 JLINK_IsHalted()  returns TRUE (0004ms, 2571ms total)
T23DC 5186:925 JLINK_ReadReg(R15 (PC)) -- CPU_ReadMem(4 bytes @ 0xE000EE08)  returns 0x20000000 (0001ms, 2568ms total)
T23DC 5186:926 JLINK_ClrBPEx(BPHandle = 0x0000000E)  returns 0x00 (0000ms, 2568ms total)
T23DC 5186:926 JLINK_ReadReg(R0)  returns 0x00000000 (0000ms, 2568ms total)
T23DC 5186:980 JLINK_WriteMemEx(0x20000000, 0x0002 Bytes, ..., Flags = 0x02000000) - Data: FE E7 -- CPU_WriteMem(2 bytes @ 0x20000000)  returns 0x02 (0000ms, 2568ms total)
T23DC 5186:980 JLINK_SetResetType(JLINKARM_CM3_RESET_TYPE_NORMAL)  returns JLINKARM_CM3_RESET_TYPE_NORMAL (0000ms, 2568ms total)
T23DC 5186:980 JLINK_Reset() -- CPU_WriteMem(4 bytes @ 0xE000EDF0) -- CPU_WriteMem(4 bytes @ 0xE000EDFC)Reset: Halt core after reset via DEMCR.VC_CORERESET. >0x35 TIF>Reset: Reset device via AIRCR.SYSRESETREQ. -- CPU_WriteMem(4 bytes @ 0xE000ED0C) >0x0D TIF> >0x28 TIF> -- CPU_ReadMem(4 bytes @ 0xE000EDF0) -- CPU_ReadMem(4 bytes @ 0xE000EDF0) -- CPU_WriteMem(4 bytes @ 0xE000EDF0) -- CPU_WriteMem(4 bytes @ 0xE000EDFC) -- CPU_ReadMem(4 bytes @ 0xE000EDF0) -- CPU_ReadMem(4 bytes @ 0xE000EE08)
 -- CPU_WriteMem(4 bytes @ 0xE0002000) -- CPU_ReadMem(4 bytes @ 0xE000EDFC) -- CPU_ReadMem(4 bytes @ 0xE0001000) -- CPU_ReadMem(4 bytes @ 0xE000EE08) (0073ms, 2641ms total)
T23DC 5187:053 JLINK_Go() -- CPU_ReadMem(4 bytes @ 0xE0001000) -- CPU_WriteMem(4 bytes @ 0xE0002008) -- CPU_WriteMem(4 bytes @ 0xE000200C) -- CPU_WriteMem(4 bytes @ 0xE0002010) -- CPU_WriteMem(4 bytes @ 0xE0002014) -- CPU_WriteMem(4 bytes @ 0xE0002018) -- CPU_WriteMem(4 bytes @ 0xE000201C) -- CPU_WriteMem(4 bytes @ 0xE0002020) -- CPU_WriteMem(4 bytes @ 0xE0002024) -- CPU_WriteMem(4 bytes @ 0xE0001004) (0004ms, 2645ms total)
T23DC 5187:075 JLINK_Close() -- CPU is running -- CPU_WriteMem(4 bytes @ 0xE0002008) -- CPU is running -- CPU_WriteMem(4 bytes @ 0xE000200C) -- CPU is running -- CPU_WriteMem(4 bytes @ 0xE0002010) -- CPU is running -- CPU_WriteMem(4 bytes @ 0xE0002014) -- CPU is running -- CPU_WriteMem(4 bytes @ 0xE0002018) -- CPU is running -- CPU_WriteMem(4 bytes @ 0xE000201C) -- CPU is running -- CPU_WriteMem(4 bytes @ 0xE0002020) -- CPU is running -- CPU_WriteMem(4 bytes @ 0xE0002024) >0x0D TIF> >0x28 TIF> >0x0D TIF>
 >0x28 TIF> >0x0D TIF> >0x28 TIF> >0x0D TIF> >0x28 TIF> >0x0D TIF> >0x28 TIF> >0x0D TIF> >0x28 TIF> >0x0D TIF> >0x28 TIF> >0x0D TIF> >0x28 TIF> >0x0D TIF> >0x21 TIF> >0x0D TIF> >0x28 TIF> (0024ms, 2669ms total)
T23DC 5187:075  (0024ms, 2669ms total)
T23DC 5187:075 Closed (0024ms, 2669ms total)
